
T1044 000:055 SEGGER J-Link V6.10i Log File (0001ms, 0015ms total)
T1044 000:055 DLL Compiled: Oct 25 2016 19:31:51 (0001ms, 0015ms total)
T1044 000:055 Logging started @ 2018-11-14 09:54 (0001ms, 0015ms total)
T1044 000:056 JLINK_SetWarnOutHandler(...) (0000ms, 0015ms total)
T1044 000:056 JLINK_OpenEx(...)
Firmware: J-Link ARM-OB STM32 compiled Aug 22 2012 19:52:04
Hardware: V7.00
S/N: 20180114
Feature(s): RDI,FlashDL,FlashBP,JFlash,GDBFullWEBSRV Webserver running on local port 19080 (0008ms, 0023ms total)
T1044 000:056   returns O.K. (0008ms, 0023ms total)
T1044 000:064 JLINK_SetErrorOutHandler(...) (0000ms, 0023ms total)
T1044 000:064 JLINK_ExecCommand("ProjectFile = "D:\工作目录\7.图书馆科研项目\机房监控\Project\MDK-ARM\JLinkSettings.ini"", ...).   returns 0x00 (0089ms, 0112ms total)
T1044 000:158 JLINK_ExecCommand("Device = STM32F103C8", ...). Device "STM32F103C8" selected.  returns 0x00 (0003ms, 0115ms total)
T1044 000:161 JLINK_ExecCommand("DisableConnectionTimeout", ...).   returns 0x01 (0000ms, 0115ms total)
T1044 000:162 JLINK_GetHardwareVersion()  returns 0x11170 (0000ms, 0116ms total)
T1044 000:162 JLINK_GetDLLVersion()  returns 61009 (0000ms, 0116ms total)
T1044 000:162 JLINK_GetFirmwareString(...) (0000ms, 0116ms total)
T1044 000:175 JLINK_GetDLLVersion()  returns 61009 (0000ms, 0116ms total)
T1044 000:175 JLINK_GetCompileDateTime() (0000ms, 0116ms total)
T1044 000:180 JLINK_GetFirmwareString(...) (0000ms, 0116ms total)
T1044 000:183 JLINK_GetHardwareVersion()  returns 0x11170 (0000ms, 0116ms total)
T1044 000:197 JLINK_TIF_Select(JLINKARM_TIF_SWD)  returns 0x00 (0000ms, 0116ms total)
T1044 000:197 JLINK_SetSpeed(5000) (0000ms, 0116ms total)
T1044 000:197 JLINK_GetId() >0x108 TIF>Found SWD-DP with ID 0x1BA01477 >0x0D TIF> >0x28 TIF> >0x0D TIF> >0x28 TIF> >0x0D TIF> >0x28 TIF> >0x0D TIF> >0x28 TIF> >0x0D TIF> >0x21 TIF> >0x0D TIF> >0x28 TIF> >0x0D TIF> >0x28 TIF> >0x0D TIF> >0x28 TIF> >0x0D TIF> >0x21 TIF> >0x0D TIF> >0x21 TIF> >0x0D TIF> >0x28 TIF> >0x0D TIF> >0x21 TIF> >0x0D TIF> >0x21 TIF> >0x0D TIF> >0x28 TIF> >0x0D TIF> >0x21 TIF> >0x0D TIF> >0x21 TIF> >0x0D TIF> >0x28 TIF> >0x0D TIF> >0x21 TIF> >0x0D TIF> >0x21 TIF> >0x0D TIF>
 >0x28 TIF> >0x0D TIF> >0x21 TIF> >0x0D TIF> >0x21 TIF> >0x0D TIF> >0x28 TIF> >0x0D TIF> >0x21 TIF> >0x0D TIF> >0x21 TIF> >0x0D TIF> >0x28 TIF> >0x0D TIF> >0x21 TIF> >0x0D TIF> >0x21 TIF> >0x108 TIF>Found SWD-DP with ID 0x1BA01477 >0x0D TIF> >0x28 TIF> >0x0D TIF> >0x28 TIF> >0x0D TIF> >0x28 TIF> >0x0D TIF> >0x28 TIF> >0x0D TIF> >0x21 TIF> >0x0D TIF> >0x28 TIF> >0x0D TIF> >0x28 TIF> >0x0D TIF> >0x21 TIF> >0x0D TIF> >0x21 TIF> >0x0D TIF> >0x21 TIF>AP-IDR: 0x14770011, Type: AHB-AP >0x0D TIF> >0x28 TIF>
 >0x0D TIF> >0x28 TIF> >0x0D TIF> >0x28 TIF> >0x0D TIF> >0x21 TIF> >0x0D TIF> >0x21 TIF> >0x0D TIF> >0x28 TIF> >0x0D TIF> >0x21 TIF> >0x0D TIF> >0x21 TIF>Found Cortex-M3 r1p1, Little endian. -- CPU_ReadMem(4 bytes @ 0xE000EDF0) -- CPU_WriteMem(4 bytes @ 0xE000EDF0) -- CPU_ReadMem(4 bytes @ 0xE0002000)FPUnit: 6 code (BP) slots and 2 literal slots -- CPU_ReadMem(4 bytes @ 0xE000EDFC) -- CPU_WriteMem(4 bytes @ 0xE000EDFC) -- CPU_ReadMem(4 bytes @ 0xE0001000) -- CPU_WriteMem(4 bytes @ 0xE0001000)
 -- CPU_ReadMem(4 bytes @ 0xE000ED88) -- CPU_WriteMem(4 bytes @ 0xE000ED88) -- CPU_ReadMem(4 bytes @ 0xE000ED88) -- CPU_WriteMem(4 bytes @ 0xE000ED88)CoreSight components:ROMTbl 0 @ E00FF000 -- CPU_ReadMem(16 bytes @ 0xE00FF000) -- CPU_ReadMem(16 bytes @ 0xE000EFF0) -- CPU_ReadMem(16 bytes @ 0xE000EFE0)ROMTbl 0 [0]: FFF0F000, CID: B105E00D, PID: 001BB000 SCS -- CPU_ReadMem(16 bytes @ 0xE0001FF0) -- CPU_ReadMem(16 bytes @ 0xE0001FE0)ROMTbl 0 [1]: FFF02000, CID: B105E00D, PID: 001BB002 DWT
 -- CPU_ReadMem(16 bytes @ 0xE0002FF0) -- CPU_ReadMem(16 bytes @ 0xE0002FE0)ROMTbl 0 [2]: FFF03000, CID: B105E00D, PID: 000BB003 FPB -- CPU_ReadMem(16 bytes @ 0xE0000FF0) -- CPU_ReadMem(16 bytes @ 0xE0000FE0)ROMTbl 0 [3]: FFF01000, CID: B105E00D, PID: 001BB001 ITM -- CPU_ReadMem(16 bytes @ 0xE00FF010) -- CPU_ReadMem(16 bytes @ 0xE0040FF0) -- CPU_ReadMem(16 bytes @ 0xE0040FE0)ROMTbl 0 [4]: FFF41000, CID: B105900D, PID: 001BB923 TPIU-Lite >0x0D TIF> >0x21 TIF>  returns 0x1BA01477 (0068ms, 0184ms total)
T1044 000:265 JLINK_GetDLLVersion()  returns 61009 (0000ms, 0184ms total)
T1044 000:265 JLINK_CORE_GetFound()  returns 0x30000FF (0000ms, 0184ms total)
T1044 000:265 JLINK_GetDebugInfo(0x100) -- Value=0xE00FF000  returns 0x00 (0000ms, 0184ms total)
T1044 000:268 JLINK_GetDebugInfo(0x100) -- Value=0xE00FF000  returns 0x00 (0000ms, 0184ms total)
T1044 000:268 JLINK_GetDebugInfo(0x101) -- Value=0x00000000  returns 0x00 (0000ms, 0184ms total)
T1044 000:268 JLINK_ReadMem (0xE0041FF0, 0x0010 Bytes, ...) -- CPU is running -- CPU_ReadMem(16 bytes @ 0xE0041FF0) - Data: 00 00 00 00 00 00 00 00 00 00 00 00 00 00 00 00  returns 0x00 (0001ms, 0185ms total)
T1044 000:269 JLINK_GetDebugInfo(0x102) -- Value=0x00000000  returns 0x00 (0000ms, 0185ms total)
T1044 000:269 JLINK_GetDebugInfo(0x103) -- Value=0xE0040000  returns 0x00 (0000ms, 0185ms total)
T1044 000:269 JLINK_GetDebugInfo(0x104) -- Value=0xE0000000  returns 0x00 (0000ms, 0185ms total)
T1044 000:269 JLINK_GetDebugInfo(0x105) -- Value=0xE0001000  returns 0x00 (0000ms, 0185ms total)
T1044 000:269 JLINK_GetDebugInfo(0x106) -- Value=0xE0002000  returns 0x00 (0000ms, 0185ms total)
T1044 000:269 JLINK_GetDebugInfo(0x107) -- Value=0xE000E000  returns 0x00 (0000ms, 0185ms total)
T1044 000:269 JLINK_GetDebugInfo(0x10C) -- Value=0xE000EDF0  returns 0x00 (0000ms, 0185ms total)
T1044 000:269 JLINK_ReadMemU32(0xE000ED00, 0x0001 Items, ...) -- CPU is running -- CPU_ReadMem(4 bytes @ 0xE000ED00) - Data: 31 C2 1F 41  returns 0x01 (0000ms, 0185ms total)
T1044 000:269 JLINK_SetResetType(JLINKARM_RESET_TYPE_NORMAL)  returns JLINKARM_RESET_TYPE_NORMAL (0000ms, 0185ms total)
T1044 000:269 JLINK_Reset() -- CPU is running -- CPU_WriteMem(4 bytes @ 0xE000EDF0) -- CPU is running -- CPU_WriteMem(4 bytes @ 0xE000EDFC) >0x35 TIF> -- CPU is running -- CPU_WriteMem(4 bytes @ 0xE000ED0C) -- CPU is running -- CPU_ReadMem(4 bytes @ 0xE000EDF0) -- CPU is running -- CPU_ReadMem(4 bytes @ 0xE000EDF0) -- CPU is running -- CPU_WriteMem(4 bytes @ 0xE000EDF0) -- CPU is running -- CPU_WriteMem(4 bytes @ 0xE000EDFC) -- CPU is running -- CPU_ReadMem(4 bytes @ 0xE000EDF0)
 -- CPU_WriteMem(4 bytes @ 0xE0002000) -- CPU_ReadMem(4 bytes @ 0xE000EDFC) -- CPU_ReadMem(4 bytes @ 0xE0001000) (0018ms, 0203ms total)
T1044 000:287 JLINK_Halt()  returns 0x00 (0000ms, 0203ms total)
T1044 000:287 JLINK_IsHalted()  returns TRUE (0000ms, 0203ms total)
T1044 000:287 JLINK_ReadMemU32(0xE000EDF0, 0x0001 Items, ...) -- CPU_ReadMem(4 bytes @ 0xE000EDF0) - Data: 03 00 03 00  returns 0x01 (0000ms, 0203ms total)
T1044 000:287 JLINK_WriteU32(0xE000EDF0, 0xA05F0003) -- CPU_WriteMem(4 bytes @ 0xE000EDF0)  returns 0x00 (0001ms, 0204ms total)
T1044 000:288 JLINK_WriteU32(0xE000EDFC, 0x01000000) -- CPU_WriteMem(4 bytes @ 0xE000EDFC)  returns 0x00 (0000ms, 0204ms total)
T1044 000:304 JLINK_GetHWStatus(...)  returns 0x00 (0000ms, 0204ms total)
T1044 000:313 JLINK_GetNumBPUnits(Type = 0xFFFFFF00)  returns 0x06 (0000ms, 0204ms total)
T1044 000:313 JLINK_GetNumBPUnits(Type = 0xF0)  returns 0x2000 (0000ms, 0204ms total)
T1044 000:313 JLINK_GetNumWPUnits()  returns 0x04 (0000ms, 0204ms total)
T1044 000:322 JLINK_GetSpeed()  returns 0xFA0 (0000ms, 0204ms total)
T1044 000:328 JLINK_ReadMemU32(0xE000E004, 0x0001 Items, ...) -- CPU_ReadMem(4 bytes @ 0xE000E004) - Data: 01 00 00 00  returns 0x01 (0001ms, 0205ms total)
T1044 000:329 JLINK_ReadMemU32(0xE000E004, 0x0001 Items, ...) -- CPU_ReadMem(4 bytes @ 0xE000E004) - Data: 01 00 00 00  returns 0x01 (0000ms, 0205ms total)
T1044 000:329 JLINK_WriteMem(0xE0001000, 0x001C Bytes, ...) - Data: 01 00 00 00 00 00 00 00 00 00 00 00 00 00 00 00 ... -- CPU_WriteMem(28 bytes @ 0xE0001000)  returns 0x1C (0001ms, 0206ms total)
T1044 000:330 JLINK_ReadMem (0xE0001000, 0x001C Bytes, ...) -- CPU_ReadMem(28 bytes @ 0xE0001000) - Data: 01 00 00 40 00 00 00 00 00 00 00 00 00 00 00 00 ...  returns 0x00 (0001ms, 0207ms total)
T1044 000:331 JLINK_Halt()  returns 0x00 (0000ms, 0207ms total)
T1044 000:331 JLINK_IsHalted()  returns TRUE (0000ms, 0207ms total)
T1044 000:333 JLINK_WriteMem(0x20000000, 0x0164 Bytes, ...) - Data: 00 BE 0A E0 0D 78 2D 06 68 40 08 24 40 00 00 D3 ... -- CPU_WriteMem(356 bytes @ 0x20000000)  returns 0x164 (0005ms, 0212ms total)
T1044 000:338 JLINK_WriteReg(R0, 0x08000000)  returns 0x00 (0000ms, 0212ms total)
T1044 000:338 JLINK_WriteReg(R1, 0x007A1200)  returns 0x00 (0000ms, 0212ms total)
T1044 000:338 JLINK_WriteReg(R2, 0x00000001)  returns 0x00 (0000ms, 0212ms total)
T1044 000:338 JLINK_WriteReg(R3, 0x00000000)  returns 0x00 (0000ms, 0212ms total)
T1044 000:338 JLINK_WriteReg(R4, 0x00000000)  returns 0x00 (0000ms, 0212ms total)
T1044 000:338 JLINK_WriteReg(R5, 0x00000000)  returns 0x00 (0000ms, 0212ms total)
T1044 000:338 JLINK_WriteReg(R6, 0x00000000)  returns 0x00 (0000ms, 0212ms total)
T1044 000:338 JLINK_WriteReg(R7, 0x00000000)  returns 0x00 (0000ms, 0212ms total)
T1044 000:338 JLINK_WriteReg(R8, 0x00000000)  returns 0x00 (0000ms, 0212ms total)
T1044 000:338 JLINK_WriteReg(R9, 0x20000160)  returns 0x00 (0000ms, 0212ms total)
T1044 000:338 JLINK_WriteReg(R10, 0x00000000)  returns 0x00 (0000ms, 0212ms total)
T1044 000:338 JLINK_WriteReg(R11, 0x00000000)  returns 0x00 (0000ms, 0212ms total)
T1044 000:338 JLINK_WriteReg(R12, 0x00000000)  returns 0x00 (0000ms, 0212ms total)
T1044 000:338 JLINK_WriteReg(R13 (SP), 0x20000800)  returns 0x00 (0000ms, 0212ms total)
T1044 000:338 JLINK_WriteReg(R14, 0x20000001)  returns 0x00 (0000ms, 0212ms total)
T1044 000:338 JLINK_WriteReg(R15 (PC), 0x20000038)  returns 0x00 (0000ms, 0212ms total)
T1044 000:338 JLINK_WriteReg(XPSR, 0x01000000)  returns 0x00 (0000ms, 0212ms total)
T1044 000:338 JLINK_WriteReg(MSP, 0x20000800)  returns 0x00 (0000ms, 0212ms total)
T1044 000:338 JLINK_WriteReg(PSP, 0x20000800)  returns 0x00 (0000ms, 0212ms total)
T1044 000:338 JLINK_WriteReg(CFBP, 0x00000000)  returns 0x00 (0000ms, 0212ms total)
T1044 000:338 JLINK_SetBPEx(Addr = 0x20000000, Type = 0xFFFFFFF2) -- CPU_ReadMem(2 bytes @ 0x20000000)  returns 0x00000001 (0001ms, 0213ms total)
T1044 000:339 JLINK_Go() -- CPU_WriteMem(2 bytes @ 0x20000000) -- CPU_ReadMem(4 bytes @ 0xE0001000) -- CPU_WriteMem(4 bytes @ 0xE0002008) -- CPU_WriteMem(4 bytes @ 0xE000200C) -- CPU_WriteMem(4 bytes @ 0xE0002010) -- CPU_WriteMem(4 bytes @ 0xE0002014) -- CPU_WriteMem(4 bytes @ 0xE0002018) -- CPU_WriteMem(4 bytes @ 0xE000201C) -- CPU_WriteMem(4 bytes @ 0xE0001004) (0006ms, 0219ms total)
T1044 000:345 JLINK_IsHalted() -- CPU_ReadMem(2 bytes @ 0x20000000)  returns TRUE (0003ms, 0222ms total)
T1044 000:348 JLINK_ReadReg(R15 (PC))  returns 0x20000000 (0000ms, 0219ms total)
T1044 000:348 JLINK_ClrBPEx(BPHandle = 0x00000001)  returns 0x00 (0000ms, 0219ms total)
T1044 000:348 JLINK_ReadReg(R0)  returns 0x00000000 (0000ms, 0219ms total)
T1044 000:349 JLINK_WriteReg(R0, 0x08000000)  returns 0x00 (0000ms, 0219ms total)
T1044 000:349 JLINK_WriteReg(R1, 0x007A1200)  returns 0x00 (0000ms, 0219ms total)
T1044 000:349 JLINK_WriteReg(R2, 0x00000001)  returns 0x00 (0000ms, 0219ms total)
T1044 000:349 JLINK_WriteReg(R3, 0x00000000)  returns 0x00 (0000ms, 0219ms total)
T1044 000:349 JLINK_WriteReg(R4, 0x00000000)  returns 0x00 (0000ms, 0219ms total)
T1044 000:349 JLINK_WriteReg(R5, 0x00000000)  returns 0x00 (0000ms, 0219ms total)
T1044 000:349 JLINK_WriteReg(R6, 0x00000000)  returns 0x00 (0000ms, 0219ms total)
T1044 000:349 JLINK_WriteReg(R7, 0x00000000)  returns 0x00 (0000ms, 0219ms total)
T1044 000:349 JLINK_WriteReg(R8, 0x00000000)  returns 0x00 (0000ms, 0219ms total)
T1044 000:349 JLINK_WriteReg(R9, 0x20000160)  returns 0x00 (0000ms, 0219ms total)
T1044 000:349 JLINK_WriteReg(R10, 0x00000000)  returns 0x00 (0000ms, 0219ms total)
T1044 000:349 JLINK_WriteReg(R11, 0x00000000)  returns 0x00 (0000ms, 0219ms total)
T1044 000:349 JLINK_WriteReg(R12, 0x00000000)  returns 0x00 (0000ms, 0219ms total)
T1044 000:349 JLINK_WriteReg(R13 (SP), 0x20000800)  returns 0x00 (0000ms, 0219ms total)
T1044 000:349 JLINK_WriteReg(R14, 0x20000001)  returns 0x00 (0000ms, 0219ms total)
T1044 000:349 JLINK_WriteReg(R15 (PC), 0x2000007C)  returns 0x00 (0000ms, 0219ms total)
T1044 000:349 JLINK_WriteReg(XPSR, 0x01000000)  returns 0x00 (0000ms, 0219ms total)
T1044 000:349 JLINK_WriteReg(MSP, 0x20000800)  returns 0x00 (0000ms, 0219ms total)
T1044 000:349 JLINK_WriteReg(PSP, 0x20000800)  returns 0x00 (0000ms, 0219ms total)
T1044 000:349 JLINK_WriteReg(CFBP, 0x00000000)  returns 0x00 (0000ms, 0219ms total)
T1044 000:349 JLINK_SetBPEx(Addr = 0x20000000, Type = 0xFFFFFFF2)  returns 0x00000002 (0000ms, 0219ms total)
T1044 000:349 JLINK_Go() -- CPU_ReadMem(4 bytes @ 0xE0001000) (0002ms, 0221ms total)
T1044 000:351 JLINK_IsHalted()  returns FALSE (0000ms, 0221ms total)
T1044 000:476 JLINK_IsHalted() -- CPU_ReadMem(2 bytes @ 0x20000000)  returns TRUE (0003ms, 0224ms total)
T1044 000:479 JLINK_ReadReg(R15 (PC))  returns 0x20000000 (0000ms, 0221ms total)
T1044 000:479 JLINK_ClrBPEx(BPHandle = 0x00000002)  returns 0x00 (0000ms, 0221ms total)
T1044 000:479 JLINK_ReadReg(R0)  returns 0x00000000 (0000ms, 0221ms total)
T1044 000:531 JLINK_WriteReg(R0, 0x00000001)  returns 0x00 (0000ms, 0221ms total)
T1044 000:531 JLINK_WriteReg(R1, 0x007A1200)  returns 0x00 (0000ms, 0221ms total)
T1044 000:531 JLINK_WriteReg(R2, 0x00000001)  returns 0x00 (0000ms, 0221ms total)
T1044 000:531 JLINK_WriteReg(R3, 0x00000000)  returns 0x00 (0000ms, 0221ms total)
T1044 000:531 JLINK_WriteReg(R4, 0x00000000)  returns 0x00 (0000ms, 0221ms total)
T1044 000:531 JLINK_WriteReg(R5, 0x00000000)  returns 0x00 (0000ms, 0221ms total)
T1044 000:531 JLINK_WriteReg(R6, 0x00000000)  returns 0x00 (0000ms, 0221ms total)
T1044 000:531 JLINK_WriteReg(R7, 0x00000000)  returns 0x00 (0000ms, 0221ms total)
T1044 000:531 JLINK_WriteReg(R8, 0x00000000)  returns 0x00 (0000ms, 0221ms total)
T1044 000:531 JLINK_WriteReg(R9, 0x20000160)  returns 0x00 (0000ms, 0221ms total)
T1044 000:531 JLINK_WriteReg(R10, 0x00000000)  returns 0x00 (0000ms, 0221ms total)
T1044 000:531 JLINK_WriteReg(R11, 0x00000000)  returns 0x00 (0000ms, 0221ms total)
T1044 000:531 JLINK_WriteReg(R12, 0x00000000)  returns 0x00 (0000ms, 0221ms total)
T1044 000:531 JLINK_WriteReg(R13 (SP), 0x20000800)  returns 0x00 (0000ms, 0221ms total)
T1044 000:531 JLINK_WriteReg(R14, 0x20000001)  returns 0x00 (0000ms, 0221ms total)
T1044 000:531 JLINK_WriteReg(R15 (PC), 0x2000006A)  returns 0x00 (0000ms, 0221ms total)
T1044 000:531 JLINK_WriteReg(XPSR, 0x01000000)  returns 0x00 (0000ms, 0221ms total)
T1044 000:531 JLINK_WriteReg(MSP, 0x20000800)  returns 0x00 (0000ms, 0221ms total)
T1044 000:531 JLINK_WriteReg(PSP, 0x20000800)  returns 0x00 (0000ms, 0221ms total)
T1044 000:531 JLINK_WriteReg(CFBP, 0x00000000)  returns 0x00 (0000ms, 0221ms total)
T1044 000:531 JLINK_SetBPEx(Addr = 0x20000000, Type = 0xFFFFFFF2)  returns 0x00000003 (0000ms, 0221ms total)
T1044 000:531 JLINK_Go() -- CPU_ReadMem(4 bytes @ 0xE0001000) (0002ms, 0223ms total)
T1044 000:533 JLINK_IsHalted() -- CPU_ReadMem(2 bytes @ 0x20000000)  returns TRUE (0003ms, 0226ms total)
T1044 000:536 JLINK_ReadReg(R15 (PC))  returns 0x20000000 (0000ms, 0223ms total)
T1044 000:536 JLINK_ClrBPEx(BPHandle = 0x00000003)  returns 0x00 (0000ms, 0223ms total)
T1044 000:536 JLINK_ReadReg(R0)  returns 0x00000000 (0000ms, 0223ms total)
T1044 000:542 JLINK_WriteMem(0x20000000, 0x0164 Bytes, ...) - Data: 00 BE 0A E0 0D 78 2D 06 68 40 08 24 40 00 00 D3 ... -- CPU_WriteMem(356 bytes @ 0x20000000)  returns 0x164 (0004ms, 0227ms total)
T1044 000:546 JLINK_WriteReg(R0, 0x08000000)  returns 0x00 (0000ms, 0227ms total)
T1044 000:546 JLINK_WriteReg(R1, 0x007A1200)  returns 0x00 (0000ms, 0227ms total)
T1044 000:546 JLINK_WriteReg(R2, 0x00000002)  returns 0x00 (0000ms, 0227ms total)
T1044 000:546 JLINK_WriteReg(R3, 0x00000000)  returns 0x00 (0000ms, 0227ms total)
T1044 000:546 JLINK_WriteReg(R4, 0x00000000)  returns 0x00 (0000ms, 0227ms total)
T1044 000:546 JLINK_WriteReg(R5, 0x00000000)  returns 0x00 (0000ms, 0227ms total)
T1044 000:546 JLINK_WriteReg(R6, 0x00000000)  returns 0x00 (0000ms, 0227ms total)
T1044 000:546 JLINK_WriteReg(R7, 0x00000000)  returns 0x00 (0000ms, 0227ms total)
T1044 000:546 JLINK_WriteReg(R8, 0x00000000)  returns 0x00 (0000ms, 0227ms total)
T1044 000:546 JLINK_WriteReg(R9, 0x20000160)  returns 0x00 (0000ms, 0227ms total)
T1044 000:546 JLINK_WriteReg(R10, 0x00000000)  returns 0x00 (0000ms, 0227ms total)
T1044 000:546 JLINK_WriteReg(R11, 0x00000000)  returns 0x00 (0000ms, 0227ms total)
T1044 000:546 JLINK_WriteReg(R12, 0x00000000)  returns 0x00 (0000ms, 0227ms total)
T1044 000:546 JLINK_WriteReg(R13 (SP), 0x20000800)  returns 0x00 (0000ms, 0227ms total)
T1044 000:546 JLINK_WriteReg(R14, 0x20000001)  returns 0x00 (0000ms, 0227ms total)
T1044 000:546 JLINK_WriteReg(R15 (PC), 0x20000038)  returns 0x00 (0000ms, 0227ms total)
T1044 000:546 JLINK_WriteReg(XPSR, 0x01000000)  returns 0x00 (0000ms, 0227ms total)
T1044 000:546 JLINK_WriteReg(MSP, 0x20000800)  returns 0x00 (0000ms, 0227ms total)
T1044 000:546 JLINK_WriteReg(PSP, 0x20000800)  returns 0x00 (0000ms, 0227ms total)
T1044 000:546 JLINK_WriteReg(CFBP, 0x00000000)  returns 0x00 (0000ms, 0227ms total)
T1044 000:546 JLINK_SetBPEx(Addr = 0x20000000, Type = 0xFFFFFFF2) -- CPU_ReadMem(2 bytes @ 0x20000000)  returns 0x00000004 (0001ms, 0228ms total)
T1044 000:547 JLINK_Go() -- CPU_WriteMem(2 bytes @ 0x20000000) -- CPU_ReadMem(4 bytes @ 0xE0001000) (0002ms, 0230ms total)
T1044 000:549 JLINK_IsHalted() -- CPU_ReadMem(2 bytes @ 0x20000000)  returns TRUE (0003ms, 0233ms total)
T1044 000:552 JLINK_ReadReg(R15 (PC))  returns 0x20000000 (0000ms, 0230ms total)
T1044 000:552 JLINK_ClrBPEx(BPHandle = 0x00000004)  returns 0x00 (0000ms, 0230ms total)
T1044 000:552 JLINK_ReadReg(R0)  returns 0x00000000 (0000ms, 0230ms total)
T1044 000:553 JLINK_WriteMem(0x20000164, 0x0400 Bytes, ...) - Data: 88 1D 00 20 01 01 00 08 C5 56 00 08 C7 56 00 08 ... -- CPU_WriteMem(1024 bytes @ 0x20000164)  returns 0x400 (0012ms, 0242ms total)
T1044 000:565 JLINK_WriteReg(R0, 0x08000000)  returns 0x00 (0000ms, 0242ms total)
T1044 000:565 JLINK_WriteReg(R1, 0x00000400)  returns 0x00 (0000ms, 0242ms total)
T1044 000:565 JLINK_WriteReg(R2, 0x20000164)  returns 0x00 (0000ms, 0242ms total)
T1044 000:565 JLINK_WriteReg(R3, 0x00000000)  returns 0x00 (0000ms, 0242ms total)
T1044 000:565 JLINK_WriteReg(R4, 0x00000000)  returns 0x00 (0000ms, 0242ms total)
T1044 000:565 JLINK_WriteReg(R5, 0x00000000)  returns 0x00 (0000ms, 0242ms total)
T1044 000:565 JLINK_WriteReg(R6, 0x00000000)  returns 0x00 (0000ms, 0242ms total)
T1044 000:565 JLINK_WriteReg(R7, 0x00000000)  returns 0x00 (0000ms, 0242ms total)
T1044 000:565 JLINK_WriteReg(R8, 0x00000000)  returns 0x00 (0000ms, 0242ms total)
T1044 000:565 JLINK_WriteReg(R9, 0x20000160)  returns 0x00 (0000ms, 0242ms total)
T1044 000:565 JLINK_WriteReg(R10, 0x00000000)  returns 0x00 (0000ms, 0242ms total)
T1044 000:565 JLINK_WriteReg(R11, 0x00000000)  returns 0x00 (0000ms, 0242ms total)
T1044 000:565 JLINK_WriteReg(R12, 0x00000000)  returns 0x00 (0000ms, 0242ms total)
T1044 000:565 JLINK_WriteReg(R13 (SP), 0x20000800)  returns 0x00 (0000ms, 0242ms total)
T1044 000:565 JLINK_WriteReg(R14, 0x20000001)  returns 0x00 (0000ms, 0242ms total)
T1044 000:565 JLINK_WriteReg(R15 (PC), 0x200000F4)  returns 0x00 (0000ms, 0242ms total)
T1044 000:565 JLINK_WriteReg(XPSR, 0x01000000)  returns 0x00 (0000ms, 0242ms total)
T1044 000:565 JLINK_WriteReg(MSP, 0x20000800)  returns 0x00 (0000ms, 0242ms total)
T1044 000:565 JLINK_WriteReg(PSP, 0x20000800)  returns 0x00 (0000ms, 0242ms total)
T1044 000:565 JLINK_WriteReg(CFBP, 0x00000000)  returns 0x00 (0000ms, 0242ms total)
T1044 000:565 JLINK_SetBPEx(Addr = 0x20000000, Type = 0xFFFFFFF2)  returns 0x00000005 (0000ms, 0242ms total)
T1044 000:565 JLINK_Go() -- CPU_ReadMem(4 bytes @ 0xE0001000) (0002ms, 0244ms total)
T1044 000:567 JLINK_IsHalted()  returns FALSE (0001ms, 0245ms total)
T1044 000:588 JLINK_IsHalted()  returns FALSE (0000ms, 0244ms total)
T1044 000:590 JLINK_IsHalted()  returns FALSE (0000ms, 0244ms total)
T1044 000:593 JLINK_IsHalted()  returns FALSE (0000ms, 0244ms total)
T1044 000:594 JLINK_IsHalted()  returns FALSE (0000ms, 0244ms total)
T1044 000:596 JLINK_IsHalted()  returns FALSE (0000ms, 0244ms total)
T1044 000:597 JLINK_IsHalted()  returns FALSE (0000ms, 0244ms total)
T1044 000:599 JLINK_IsHalted() -- CPU_ReadMem(2 bytes @ 0x20000000)  returns TRUE (0003ms, 0247ms total)
T1044 000:602 JLINK_ReadReg(R15 (PC))  returns 0x20000000 (0000ms, 0244ms total)
T1044 000:602 JLINK_ClrBPEx(BPHandle = 0x00000005)  returns 0x00 (0000ms, 0244ms total)
T1044 000:602 JLINK_ReadReg(R0)  returns 0x00000000 (0000ms, 0244ms total)
T1044 000:602 JLINK_WriteMem(0x20000164, 0x0400 Bytes, ...) - Data: 44 4A 12 1F 11 60 70 47 10 B5 00 22 02 68 47 F6 ... -- CPU_WriteMem(1024 bytes @ 0x20000164)  returns 0x400 (0013ms, 0257ms total)
T1044 000:615 JLINK_WriteReg(R0, 0x08000400)  returns 0x00 (0000ms, 0257ms total)
T1044 000:615 JLINK_WriteReg(R1, 0x00000400)  returns 0x00 (0000ms, 0257ms total)
T1044 000:615 JLINK_WriteReg(R2, 0x20000164)  returns 0x00 (0000ms, 0257ms total)
T1044 000:615 JLINK_WriteReg(R3, 0x00000000)  returns 0x00 (0000ms, 0257ms total)
T1044 000:615 JLINK_WriteReg(R4, 0x00000000)  returns 0x00 (0000ms, 0257ms total)
T1044 000:615 JLINK_WriteReg(R5, 0x00000000)  returns 0x00 (0000ms, 0257ms total)
T1044 000:615 JLINK_WriteReg(R6, 0x00000000)  returns 0x00 (0000ms, 0257ms total)
T1044 000:615 JLINK_WriteReg(R7, 0x00000000)  returns 0x00 (0000ms, 0257ms total)
T1044 000:615 JLINK_WriteReg(R8, 0x00000000)  returns 0x00 (0000ms, 0257ms total)
T1044 000:615 JLINK_WriteReg(R9, 0x20000160)  returns 0x00 (0000ms, 0257ms total)
T1044 000:615 JLINK_WriteReg(R10, 0x00000000)  returns 0x00 (0000ms, 0257ms total)
T1044 000:615 JLINK_WriteReg(R11, 0x00000000)  returns 0x00 (0000ms, 0257ms total)
T1044 000:615 JLINK_WriteReg(R12, 0x00000000)  returns 0x00 (0000ms, 0257ms total)
T1044 000:615 JLINK_WriteReg(R13 (SP), 0x20000800)  returns 0x00 (0000ms, 0257ms total)
T1044 000:615 JLINK_WriteReg(R14, 0x20000001)  returns 0x00 (0000ms, 0257ms total)
T1044 000:615 JLINK_WriteReg(R15 (PC), 0x200000F4)  returns 0x00 (0000ms, 0257ms total)
T1044 000:615 JLINK_WriteReg(XPSR, 0x01000000)  returns 0x00 (0000ms, 0257ms total)
T1044 000:615 JLINK_WriteReg(MSP, 0x20000800)  returns 0x00 (0000ms, 0257ms total)
T1044 000:615 JLINK_WriteReg(PSP, 0x20000800)  returns 0x00 (0000ms, 0257ms total)
T1044 000:615 JLINK_WriteReg(CFBP, 0x00000000)  returns 0x00 (0000ms, 0257ms total)
T1044 000:615 JLINK_SetBPEx(Addr = 0x20000000, Type = 0xFFFFFFF2)  returns 0x00000006 (0000ms, 0257ms total)
T1044 000:615 JLINK_Go() -- CPU_ReadMem(4 bytes @ 0xE0001000) (0002ms, 0259ms total)
T1044 000:617 JLINK_IsHalted()  returns FALSE (0000ms, 0259ms total)
T1044 000:623 JLINK_IsHalted()  returns FALSE (0000ms, 0259ms total)
T1044 000:627 JLINK_IsHalted()  returns FALSE (0000ms, 0259ms total)
T1044 000:629 JLINK_IsHalted()  returns FALSE (0000ms, 0259ms total)
T1044 000:633 JLINK_IsHalted()  returns FALSE (0000ms, 0259ms total)
T1044 000:635 JLINK_IsHalted()  returns FALSE (0000ms, 0259ms total)
T1044 000:636 JLINK_IsHalted()  returns FALSE (0000ms, 0259ms total)
T1044 000:638 JLINK_IsHalted()  returns FALSE (0000ms, 0259ms total)
T1044 000:641 JLINK_IsHalted()  returns FALSE (0000ms, 0259ms total)
T1044 000:642 JLINK_IsHalted()  returns FALSE (0000ms, 0259ms total)
T1044 000:644 JLINK_IsHalted()  returns FALSE (0000ms, 0259ms total)
T1044 000:645 JLINK_IsHalted()  returns FALSE (0000ms, 0259ms total)
T1044 000:647 JLINK_IsHalted()  returns FALSE (0000ms, 0259ms total)
T1044 000:648 JLINK_IsHalted() -- CPU_ReadMem(2 bytes @ 0x20000000)  returns TRUE (0003ms, 0262ms total)
T1044 000:651 JLINK_ReadReg(R15 (PC))  returns 0x20000000 (0000ms, 0259ms total)
T1044 000:651 JLINK_ClrBPEx(BPHandle = 0x00000006)  returns 0x00 (0000ms, 0259ms total)
T1044 000:651 JLINK_ReadReg(R0)  returns 0x00000000 (0000ms, 0259ms total)
T1044 000:652 JLINK_WriteMem(0x20000164, 0x0400 Bytes, ...) - Data: 08 28 CE D3 54 60 BD E8 F0 81 4F F6 FF 71 01 80 ... -- CPU_WriteMem(1024 bytes @ 0x20000164)  returns 0x400 (0012ms, 0271ms total)
T1044 000:664 JLINK_WriteReg(R0, 0x08000800)  returns 0x00 (0000ms, 0271ms total)
T1044 000:664 JLINK_WriteReg(R1, 0x00000400)  returns 0x00 (0000ms, 0271ms total)
T1044 000:664 JLINK_WriteReg(R2, 0x20000164)  returns 0x00 (0000ms, 0271ms total)
T1044 000:664 JLINK_WriteReg(R3, 0x00000000)  returns 0x00 (0000ms, 0271ms total)
T1044 000:664 JLINK_WriteReg(R4, 0x00000000)  returns 0x00 (0000ms, 0271ms total)
T1044 000:664 JLINK_WriteReg(R5, 0x00000000)  returns 0x00 (0000ms, 0271ms total)
T1044 000:664 JLINK_WriteReg(R6, 0x00000000)  returns 0x00 (0000ms, 0271ms total)
T1044 000:664 JLINK_WriteReg(R7, 0x00000000)  returns 0x00 (0000ms, 0271ms total)
T1044 000:664 JLINK_WriteReg(R8, 0x00000000)  returns 0x00 (0000ms, 0271ms total)
T1044 000:664 JLINK_WriteReg(R9, 0x20000160)  returns 0x00 (0000ms, 0271ms total)
T1044 000:664 JLINK_WriteReg(R10, 0x00000000)  returns 0x00 (0000ms, 0271ms total)
T1044 000:664 JLINK_WriteReg(R11, 0x00000000)  returns 0x00 (0000ms, 0271ms total)
T1044 000:664 JLINK_WriteReg(R12, 0x00000000)  returns 0x00 (0000ms, 0271ms total)
T1044 000:664 JLINK_WriteReg(R13 (SP), 0x20000800)  returns 0x00 (0000ms, 0271ms total)
T1044 000:664 JLINK_WriteReg(R14, 0x20000001)  returns 0x00 (0000ms, 0271ms total)
T1044 000:664 JLINK_WriteReg(R15 (PC), 0x200000F4)  returns 0x00 (0000ms, 0271ms total)
T1044 000:664 JLINK_WriteReg(XPSR, 0x01000000)  returns 0x00 (0000ms, 0271ms total)
T1044 000:664 JLINK_WriteReg(MSP, 0x20000800)  returns 0x00 (0000ms, 0271ms total)
T1044 000:664 JLINK_WriteReg(PSP, 0x20000800)  returns 0x00 (0000ms, 0271ms total)
T1044 000:664 JLINK_WriteReg(CFBP, 0x00000000)  returns 0x00 (0000ms, 0271ms total)
T1044 000:664 JLINK_SetBPEx(Addr = 0x20000000, Type = 0xFFFFFFF2)  returns 0x00000007 (0000ms, 0271ms total)
T1044 000:664 JLINK_Go() -- CPU_ReadMem(4 bytes @ 0xE0001000) (0002ms, 0273ms total)
T1044 000:666 JLINK_IsHalted()  returns FALSE (0001ms, 0274ms total)
T1044 000:670 JLINK_IsHalted()  returns FALSE (0000ms, 0273ms total)
T1044 000:673 JLINK_IsHalted()  returns FALSE (0000ms, 0273ms total)
T1044 000:674 JLINK_IsHalted()  returns FALSE (0000ms, 0273ms total)
T1044 000:676 JLINK_IsHalted()  returns FALSE (0000ms, 0273ms total)
T1044 000:677 JLINK_IsHalted()  returns FALSE (0000ms, 0273ms total)
T1044 000:679 JLINK_IsHalted()  returns FALSE (0000ms, 0273ms total)
T1044 000:682 JLINK_IsHalted()  returns FALSE (0000ms, 0273ms total)
T1044 000:683 JLINK_IsHalted()  returns FALSE (0000ms, 0273ms total)
T1044 000:685 JLINK_IsHalted()  returns FALSE (0000ms, 0273ms total)
T1044 000:686 JLINK_IsHalted()  returns FALSE (0000ms, 0273ms total)
T1044 000:689 JLINK_IsHalted()  returns FALSE (0000ms, 0273ms total)
T1044 000:691 JLINK_IsHalted()  returns FALSE (0000ms, 0273ms total)
T1044 000:692 JLINK_IsHalted()  returns FALSE (0000ms, 0273ms total)
T1044 000:694 JLINK_IsHalted()  returns FALSE (0000ms, 0273ms total)
T1044 000:697 JLINK_IsHalted()  returns FALSE (0000ms, 0273ms total)
T1044 000:699 JLINK_IsHalted() -- CPU_ReadMem(2 bytes @ 0x20000000)  returns TRUE (0003ms, 0276ms total)
T1044 000:702 JLINK_ReadReg(R15 (PC))  returns 0x20000000 (0000ms, 0273ms total)
T1044 000:702 JLINK_ClrBPEx(BPHandle = 0x00000007)  returns 0x00 (0000ms, 0273ms total)
T1044 000:702 JLINK_ReadReg(R0)  returns 0x00000000 (0000ms, 0273ms total)
T1044 000:702 JLINK_WriteMem(0x20000164, 0x0400 Bytes, ...) - Data: 01 46 00 20 75 4A 50 68 20 F4 40 40 08 43 50 60 ... -- CPU_WriteMem(1024 bytes @ 0x20000164)  returns 0x400 (0013ms, 0286ms total)
T1044 000:715 JLINK_WriteReg(R0, 0x08000C00)  returns 0x00 (0000ms, 0286ms total)
T1044 000:715 JLINK_WriteReg(R1, 0x00000400)  returns 0x00 (0000ms, 0286ms total)
T1044 000:715 JLINK_WriteReg(R2, 0x20000164)  returns 0x00 (0000ms, 0286ms total)
T1044 000:715 JLINK_WriteReg(R3, 0x00000000)  returns 0x00 (0000ms, 0286ms total)
T1044 000:715 JLINK_WriteReg(R4, 0x00000000)  returns 0x00 (0000ms, 0286ms total)
T1044 000:715 JLINK_WriteReg(R5, 0x00000000)  returns 0x00 (0000ms, 0286ms total)
T1044 000:715 JLINK_WriteReg(R6, 0x00000000)  returns 0x00 (0000ms, 0286ms total)
T1044 000:715 JLINK_WriteReg(R7, 0x00000000)  returns 0x00 (0000ms, 0286ms total)
T1044 000:715 JLINK_WriteReg(R8, 0x00000000)  returns 0x00 (0000ms, 0286ms total)
T1044 000:715 JLINK_WriteReg(R9, 0x20000160)  returns 0x00 (0000ms, 0286ms total)
T1044 000:715 JLINK_WriteReg(R10, 0x00000000)  returns 0x00 (0000ms, 0286ms total)
T1044 000:715 JLINK_WriteReg(R11, 0x00000000)  returns 0x00 (0000ms, 0286ms total)
T1044 000:715 JLINK_WriteReg(R12, 0x00000000)  returns 0x00 (0000ms, 0286ms total)
T1044 000:715 JLINK_WriteReg(R13 (SP), 0x20000800)  returns 0x00 (0000ms, 0286ms total)
T1044 000:715 JLINK_WriteReg(R14, 0x20000001)  returns 0x00 (0000ms, 0286ms total)
T1044 000:715 JLINK_WriteReg(R15 (PC), 0x200000F4)  returns 0x00 (0000ms, 0286ms total)
T1044 000:715 JLINK_WriteReg(XPSR, 0x01000000)  returns 0x00 (0000ms, 0286ms total)
T1044 000:715 JLINK_WriteReg(MSP, 0x20000800)  returns 0x00 (0000ms, 0286ms total)
T1044 000:715 JLINK_WriteReg(PSP, 0x20000800)  returns 0x00 (0000ms, 0286ms total)
T1044 000:715 JLINK_WriteReg(CFBP, 0x00000000)  returns 0x00 (0000ms, 0286ms total)
T1044 000:715 JLINK_SetBPEx(Addr = 0x20000000, Type = 0xFFFFFFF2)  returns 0x00000008 (0000ms, 0286ms total)
T1044 000:715 JLINK_Go() -- CPU_ReadMem(4 bytes @ 0xE0001000) (0002ms, 0288ms total)
T1044 000:717 JLINK_IsHalted()  returns FALSE (0000ms, 0288ms total)
T1044 000:722 JLINK_IsHalted()  returns FALSE (0000ms, 0288ms total)
T1044 000:724 JLINK_IsHalted()  returns FALSE (0000ms, 0288ms total)
T1044 000:725 JLINK_IsHalted()  returns FALSE (0000ms, 0288ms total)
T1044 000:727 JLINK_IsHalted()  returns FALSE (0000ms, 0288ms total)
T1044 000:732 JLINK_IsHalted()  returns FALSE (0000ms, 0288ms total)
T1044 000:734 JLINK_IsHalted()  returns FALSE (0000ms, 0288ms total)
T1044 000:735 JLINK_IsHalted()  returns FALSE (0000ms, 0288ms total)
T1044 000:739 JLINK_IsHalted()  returns FALSE (0000ms, 0288ms total)
T1044 000:746 JLINK_IsHalted()  returns FALSE (0000ms, 0288ms total)
T1044 000:747 JLINK_IsHalted()  returns FALSE (0000ms, 0288ms total)
T1044 000:749 JLINK_IsHalted() -- CPU_ReadMem(2 bytes @ 0x20000000)  returns TRUE (0003ms, 0291ms total)
T1044 000:752 JLINK_ReadReg(R15 (PC))  returns 0x20000000 (0000ms, 0288ms total)
T1044 000:752 JLINK_ClrBPEx(BPHandle = 0x00000008)  returns 0x00 (0000ms, 0288ms total)
T1044 000:752 JLINK_ReadReg(R0)  returns 0x00000000 (0000ms, 0288ms total)
T1044 000:753 JLINK_WriteMem(0x20000164, 0x0400 Bytes, ...) - Data: B5 FE 00 21 60 14 FF F7 B1 FE 70 E0 D5 48 84 42 ... -- CPU_WriteMem(1024 bytes @ 0x20000164)  returns 0x400 (0012ms, 0300ms total)
T1044 000:765 JLINK_WriteReg(R0, 0x08001000)  returns 0x00 (0000ms, 0300ms total)
T1044 000:765 JLINK_WriteReg(R1, 0x00000400)  returns 0x00 (0000ms, 0300ms total)
T1044 000:765 JLINK_WriteReg(R2, 0x20000164)  returns 0x00 (0000ms, 0300ms total)
T1044 000:765 JLINK_WriteReg(R3, 0x00000000)  returns 0x00 (0000ms, 0300ms total)
T1044 000:765 JLINK_WriteReg(R4, 0x00000000)  returns 0x00 (0000ms, 0300ms total)
T1044 000:765 JLINK_WriteReg(R5, 0x00000000)  returns 0x00 (0000ms, 0300ms total)
T1044 000:765 JLINK_WriteReg(R6, 0x00000000)  returns 0x00 (0000ms, 0300ms total)
T1044 000:765 JLINK_WriteReg(R7, 0x00000000)  returns 0x00 (0000ms, 0300ms total)
T1044 000:765 JLINK_WriteReg(R8, 0x00000000)  returns 0x00 (0000ms, 0300ms total)
T1044 000:765 JLINK_WriteReg(R9, 0x20000160)  returns 0x00 (0000ms, 0300ms total)
T1044 000:765 JLINK_WriteReg(R10, 0x00000000)  returns 0x00 (0000ms, 0300ms total)
T1044 000:765 JLINK_WriteReg(R11, 0x00000000)  returns 0x00 (0000ms, 0300ms total)
T1044 000:765 JLINK_WriteReg(R12, 0x00000000)  returns 0x00 (0000ms, 0300ms total)
T1044 000:765 JLINK_WriteReg(R13 (SP), 0x20000800)  returns 0x00 (0000ms, 0300ms total)
T1044 000:765 JLINK_WriteReg(R14, 0x20000001)  returns 0x00 (0000ms, 0300ms total)
T1044 000:765 JLINK_WriteReg(R15 (PC), 0x200000F4)  returns 0x00 (0000ms, 0300ms total)
T1044 000:765 JLINK_WriteReg(XPSR, 0x01000000)  returns 0x00 (0000ms, 0300ms total)
T1044 000:765 JLINK_WriteReg(MSP, 0x20000800)  returns 0x00 (0000ms, 0300ms total)
T1044 000:765 JLINK_WriteReg(PSP, 0x20000800)  returns 0x00 (0000ms, 0300ms total)
T1044 000:765 JLINK_WriteReg(CFBP, 0x00000000)  returns 0x00 (0000ms, 0300ms total)
T1044 000:765 JLINK_SetBPEx(Addr = 0x20000000, Type = 0xFFFFFFF2)  returns 0x00000009 (0000ms, 0300ms total)
T1044 000:765 JLINK_Go() -- CPU_ReadMem(4 bytes @ 0xE0001000) (0002ms, 0302ms total)
T1044 000:767 JLINK_IsHalted()  returns FALSE (0000ms, 0302ms total)
T1044 000:771 JLINK_IsHalted()  returns FALSE (0000ms, 0302ms total)
T1044 000:772 JLINK_IsHalted()  returns FALSE (0000ms, 0302ms total)
T1044 000:774 JLINK_IsHalted()  returns FALSE (0000ms, 0302ms total)
T1044 000:778 JLINK_IsHalted()  returns FALSE (0000ms, 0302ms total)
T1044 000:780 JLINK_IsHalted()  returns FALSE (0000ms, 0302ms total)
T1044 000:781 JLINK_IsHalted()  returns FALSE (0000ms, 0302ms total)
T1044 000:783 JLINK_IsHalted()  returns FALSE (0000ms, 0302ms total)
T1044 000:786 JLINK_IsHalted()  returns FALSE (0000ms, 0302ms total)
T1044 000:789 JLINK_IsHalted()  returns FALSE (0000ms, 0302ms total)
T1044 000:790 JLINK_IsHalted()  returns FALSE (0000ms, 0302ms total)
T1044 000:793 JLINK_IsHalted()  returns FALSE (0000ms, 0302ms total)
T1044 000:795 JLINK_IsHalted()  returns FALSE (0000ms, 0302ms total)
T1044 000:796 JLINK_IsHalted()  returns FALSE (0000ms, 0302ms total)
T1044 000:798 JLINK_IsHalted() -- CPU_ReadMem(2 bytes @ 0x20000000)  returns TRUE (0003ms, 0305ms total)
T1044 000:801 JLINK_ReadReg(R15 (PC))  returns 0x20000000 (0000ms, 0302ms total)
T1044 000:801 JLINK_ClrBPEx(BPHandle = 0x00000009)  returns 0x00 (0000ms, 0302ms total)
T1044 000:801 JLINK_ReadReg(R0)  returns 0x00000000 (0000ms, 0302ms total)
T1044 000:801 JLINK_WriteMem(0x20000164, 0x0400 Bytes, ...) - Data: 07 EA 0C 07 07 84 82 8B 01 8C 4F F6 FF 77 07 EA ... -- CPU_WriteMem(1024 bytes @ 0x20000164)  returns 0x400 (0013ms, 0315ms total)
T1044 000:814 JLINK_WriteReg(R0, 0x08001400)  returns 0x00 (0000ms, 0315ms total)
T1044 000:814 JLINK_WriteReg(R1, 0x00000400)  returns 0x00 (0000ms, 0315ms total)
T1044 000:814 JLINK_WriteReg(R2, 0x20000164)  returns 0x00 (0000ms, 0315ms total)
T1044 000:814 JLINK_WriteReg(R3, 0x00000000)  returns 0x00 (0000ms, 0315ms total)
T1044 000:814 JLINK_WriteReg(R4, 0x00000000)  returns 0x00 (0000ms, 0315ms total)
T1044 000:814 JLINK_WriteReg(R5, 0x00000000)  returns 0x00 (0000ms, 0315ms total)
T1044 000:814 JLINK_WriteReg(R6, 0x00000000)  returns 0x00 (0000ms, 0315ms total)
T1044 000:814 JLINK_WriteReg(R7, 0x00000000)  returns 0x00 (0000ms, 0315ms total)
T1044 000:814 JLINK_WriteReg(R8, 0x00000000)  returns 0x00 (0000ms, 0315ms total)
T1044 000:814 JLINK_WriteReg(R9, 0x20000160)  returns 0x00 (0000ms, 0315ms total)
T1044 000:814 JLINK_WriteReg(R10, 0x00000000)  returns 0x00 (0000ms, 0315ms total)
T1044 000:814 JLINK_WriteReg(R11, 0x00000000)  returns 0x00 (0000ms, 0315ms total)
T1044 000:814 JLINK_WriteReg(R12, 0x00000000)  returns 0x00 (0000ms, 0315ms total)
T1044 000:814 JLINK_WriteReg(R13 (SP), 0x20000800)  returns 0x00 (0000ms, 0315ms total)
T1044 000:814 JLINK_WriteReg(R14, 0x20000001)  returns 0x00 (0000ms, 0315ms total)
T1044 000:814 JLINK_WriteReg(R15 (PC), 0x200000F4)  returns 0x00 (0000ms, 0315ms total)
T1044 000:814 JLINK_WriteReg(XPSR, 0x01000000)  returns 0x00 (0000ms, 0315ms total)
T1044 000:814 JLINK_WriteReg(MSP, 0x20000800)  returns 0x00 (0000ms, 0315ms total)
T1044 000:814 JLINK_WriteReg(PSP, 0x20000800)  returns 0x00 (0000ms, 0315ms total)
T1044 000:814 JLINK_WriteReg(CFBP, 0x00000000)  returns 0x00 (0000ms, 0315ms total)
T1044 000:814 JLINK_SetBPEx(Addr = 0x20000000, Type = 0xFFFFFFF2)  returns 0x0000000A (0000ms, 0315ms total)
T1044 000:814 JLINK_Go() -- CPU_ReadMem(4 bytes @ 0xE0001000) (0002ms, 0317ms total)
T1044 000:816 JLINK_IsHalted()  returns FALSE (0000ms, 0317ms total)
T1044 000:823 JLINK_IsHalted()  returns FALSE (0000ms, 0317ms total)
T1044 000:826 JLINK_IsHalted()  returns FALSE (0000ms, 0317ms total)
T1044 000:828 JLINK_IsHalted()  returns FALSE (0000ms, 0317ms total)
T1044 000:829 JLINK_IsHalted()  returns FALSE (0000ms, 0317ms total)
T1044 000:831 JLINK_IsHalted()  returns FALSE (0000ms, 0317ms total)
T1044 000:837 JLINK_IsHalted()  returns FALSE (0000ms, 0317ms total)
T1044 000:838 JLINK_IsHalted()  returns FALSE (0000ms, 0317ms total)
T1044 000:841 JLINK_IsHalted()  returns FALSE (0000ms, 0317ms total)
T1044 000:843 JLINK_IsHalted()  returns FALSE (0000ms, 0317ms total)
T1044 000:844 JLINK_IsHalted()  returns FALSE (0000ms, 0317ms total)
T1044 000:846 JLINK_IsHalted()  returns FALSE (0000ms, 0317ms total)
T1044 000:847 JLINK_IsHalted() -- CPU_ReadMem(2 bytes @ 0x20000000)  returns TRUE (0003ms, 0320ms total)
T1044 000:850 JLINK_ReadReg(R15 (PC))  returns 0x20000000 (0000ms, 0317ms total)
T1044 000:850 JLINK_ClrBPEx(BPHandle = 0x0000000A)  returns 0x00 (0000ms, 0317ms total)
T1044 000:850 JLINK_ReadReg(R0)  returns 0x00000000 (0000ms, 0317ms total)
T1044 000:851 JLINK_WriteMem(0x20000164, 0x0400 Bytes, ...) - Data: 83 89 0B 43 83 81 02 E0 83 89 8B 43 83 81 70 47 ... -- CPU_WriteMem(1024 bytes @ 0x20000164)  returns 0x400 (0012ms, 0329ms total)
T1044 000:863 JLINK_WriteReg(R0, 0x08001800)  returns 0x00 (0000ms, 0329ms total)
T1044 000:863 JLINK_WriteReg(R1, 0x00000400)  returns 0x00 (0000ms, 0329ms total)
T1044 000:863 JLINK_WriteReg(R2, 0x20000164)  returns 0x00 (0000ms, 0329ms total)
T1044 000:863 JLINK_WriteReg(R3, 0x00000000)  returns 0x00 (0000ms, 0329ms total)
T1044 000:863 JLINK_WriteReg(R4, 0x00000000)  returns 0x00 (0000ms, 0329ms total)
T1044 000:863 JLINK_WriteReg(R5, 0x00000000)  returns 0x00 (0000ms, 0329ms total)
T1044 000:863 JLINK_WriteReg(R6, 0x00000000)  returns 0x00 (0000ms, 0329ms total)
T1044 000:863 JLINK_WriteReg(R7, 0x00000000)  returns 0x00 (0000ms, 0329ms total)
T1044 000:863 JLINK_WriteReg(R8, 0x00000000)  returns 0x00 (0000ms, 0329ms total)
T1044 000:863 JLINK_WriteReg(R9, 0x20000160)  returns 0x00 (0000ms, 0329ms total)
T1044 000:863 JLINK_WriteReg(R10, 0x00000000)  returns 0x00 (0000ms, 0329ms total)
T1044 000:863 JLINK_WriteReg(R11, 0x00000000)  returns 0x00 (0000ms, 0329ms total)
T1044 000:863 JLINK_WriteReg(R12, 0x00000000)  returns 0x00 (0000ms, 0329ms total)
T1044 000:863 JLINK_WriteReg(R13 (SP), 0x20000800)  returns 0x00 (0000ms, 0329ms total)
T1044 000:863 JLINK_WriteReg(R14, 0x20000001)  returns 0x00 (0000ms, 0329ms total)
T1044 000:863 JLINK_WriteReg(R15 (PC), 0x200000F4)  returns 0x00 (0000ms, 0329ms total)
T1044 000:863 JLINK_WriteReg(XPSR, 0x01000000)  returns 0x00 (0000ms, 0329ms total)
T1044 000:863 JLINK_WriteReg(MSP, 0x20000800)  returns 0x00 (0000ms, 0329ms total)
T1044 000:863 JLINK_WriteReg(PSP, 0x20000800)  returns 0x00 (0000ms, 0329ms total)
T1044 000:863 JLINK_WriteReg(CFBP, 0x00000000)  returns 0x00 (0000ms, 0329ms total)
T1044 000:863 JLINK_SetBPEx(Addr = 0x20000000, Type = 0xFFFFFFF2)  returns 0x0000000B (0000ms, 0329ms total)
T1044 000:863 JLINK_Go() -- CPU_ReadMem(4 bytes @ 0xE0001000) (0002ms, 0331ms total)
T1044 000:865 JLINK_IsHalted()  returns FALSE (0001ms, 0332ms total)
T1044 000:869 JLINK_IsHalted()  returns FALSE (0000ms, 0331ms total)
T1044 000:871 JLINK_IsHalted()  returns FALSE (0000ms, 0331ms total)
T1044 000:875 JLINK_IsHalted()  returns FALSE (0000ms, 0331ms total)
T1044 000:876 JLINK_IsHalted()  returns FALSE (0000ms, 0331ms total)
T1044 000:878 JLINK_IsHalted()  returns FALSE (0000ms, 0331ms total)
T1044 000:879 JLINK_IsHalted()  returns FALSE (0000ms, 0331ms total)
T1044 000:881 JLINK_IsHalted()  returns FALSE (0000ms, 0331ms total)
T1044 000:882 JLINK_IsHalted()  returns FALSE (0000ms, 0331ms total)
T1044 000:884 JLINK_IsHalted()  returns FALSE (0000ms, 0331ms total)
T1044 000:885 JLINK_IsHalted()  returns FALSE (0000ms, 0331ms total)
T1044 000:887 JLINK_IsHalted()  returns FALSE (0000ms, 0331ms total)
T1044 000:888 JLINK_IsHalted()  returns FALSE (0000ms, 0331ms total)
T1044 000:890 JLINK_IsHalted()  returns FALSE (0000ms, 0331ms total)
T1044 000:906 JLINK_IsHalted() -- CPU_ReadMem(2 bytes @ 0x20000000)  returns TRUE (0003ms, 0334ms total)
T1044 000:909 JLINK_ReadReg(R15 (PC))  returns 0x20000000 (0000ms, 0331ms total)
T1044 000:909 JLINK_ClrBPEx(BPHandle = 0x0000000B)  returns 0x00 (0000ms, 0331ms total)
T1044 000:909 JLINK_ReadReg(R0)  returns 0x00000000 (0000ms, 0331ms total)
T1044 000:909 JLINK_WriteMem(0x20000164, 0x0400 Bytes, ...) - Data: 1D 8C A5 43 1D 84 09 B1 08 29 09 D1 00 EB 61 00 ... -- CPU_WriteMem(1024 bytes @ 0x20000164)  returns 0x400 (0013ms, 0344ms total)
T1044 000:922 JLINK_WriteReg(R0, 0x08001C00)  returns 0x00 (0000ms, 0344ms total)
T1044 000:922 JLINK_WriteReg(R1, 0x00000400)  returns 0x00 (0000ms, 0344ms total)
T1044 000:922 JLINK_WriteReg(R2, 0x20000164)  returns 0x00 (0000ms, 0344ms total)
T1044 000:922 JLINK_WriteReg(R3, 0x00000000)  returns 0x00 (0000ms, 0344ms total)
T1044 000:922 JLINK_WriteReg(R4, 0x00000000)  returns 0x00 (0000ms, 0344ms total)
T1044 000:922 JLINK_WriteReg(R5, 0x00000000)  returns 0x00 (0000ms, 0344ms total)
T1044 000:922 JLINK_WriteReg(R6, 0x00000000)  returns 0x00 (0000ms, 0344ms total)
T1044 000:922 JLINK_WriteReg(R7, 0x00000000)  returns 0x00 (0000ms, 0344ms total)
T1044 000:922 JLINK_WriteReg(R8, 0x00000000)  returns 0x00 (0000ms, 0344ms total)
T1044 000:922 JLINK_WriteReg(R9, 0x20000160)  returns 0x00 (0000ms, 0344ms total)
T1044 000:922 JLINK_WriteReg(R10, 0x00000000)  returns 0x00 (0000ms, 0344ms total)
T1044 000:922 JLINK_WriteReg(R11, 0x00000000)  returns 0x00 (0000ms, 0344ms total)
T1044 000:922 JLINK_WriteReg(R12, 0x00000000)  returns 0x00 (0000ms, 0344ms total)
T1044 000:922 JLINK_WriteReg(R13 (SP), 0x20000800)  returns 0x00 (0000ms, 0344ms total)
T1044 000:922 JLINK_WriteReg(R14, 0x20000001)  returns 0x00 (0000ms, 0344ms total)
T1044 000:922 JLINK_WriteReg(R15 (PC), 0x200000F4)  returns 0x00 (0000ms, 0344ms total)
T1044 000:922 JLINK_WriteReg(XPSR, 0x01000000)  returns 0x00 (0000ms, 0344ms total)
T1044 000:922 JLINK_WriteReg(MSP, 0x20000800)  returns 0x00 (0000ms, 0344ms total)
T1044 000:922 JLINK_WriteReg(PSP, 0x20000800)  returns 0x00 (0000ms, 0344ms total)
T1044 000:922 JLINK_WriteReg(CFBP, 0x00000000)  returns 0x00 (0000ms, 0344ms total)
T1044 000:922 JLINK_SetBPEx(Addr = 0x20000000, Type = 0xFFFFFFF2)  returns 0x0000000C (0000ms, 0344ms total)
T1044 000:922 JLINK_Go() -- CPU_ReadMem(4 bytes @ 0xE0001000) (0002ms, 0346ms total)
T1044 000:924 JLINK_IsHalted()  returns FALSE (0000ms, 0346ms total)
T1044 000:927 JLINK_IsHalted()  returns FALSE (0000ms, 0346ms total)
T1044 000:929 JLINK_IsHalted()  returns FALSE (0000ms, 0346ms total)
T1044 000:930 JLINK_IsHalted()  returns FALSE (0000ms, 0346ms total)
T1044 000:932 JLINK_IsHalted()  returns FALSE (0000ms, 0346ms total)
T1044 000:934 JLINK_IsHalted()  returns FALSE (0000ms, 0346ms total)
T1044 000:935 JLINK_IsHalted()  returns FALSE (0000ms, 0346ms total)
T1044 000:939 JLINK_IsHalted()  returns FALSE (0000ms, 0346ms total)
T1044 000:940 JLINK_IsHalted()  returns FALSE (0000ms, 0346ms total)
T1044 000:942 JLINK_IsHalted()  returns FALSE (0000ms, 0346ms total)
T1044 000:956 JLINK_IsHalted() -- CPU_ReadMem(2 bytes @ 0x20000000)  returns TRUE (0003ms, 0349ms total)
T1044 000:959 JLINK_ReadReg(R15 (PC))  returns 0x20000000 (0000ms, 0346ms total)
T1044 000:959 JLINK_ClrBPEx(BPHandle = 0x0000000C)  returns 0x00 (0000ms, 0346ms total)
T1044 000:959 JLINK_ReadReg(R0)  returns 0x00000000 (0000ms, 0346ms total)
T1044 000:960 JLINK_WriteMem(0x20000164, 0x0400 Bytes, ...) - Data: 42 EA 01 22 02 83 70 47 02 8B 02 F4 7F 42 02 83 ... -- CPU_WriteMem(1024 bytes @ 0x20000164)  returns 0x400 (0012ms, 0358ms total)
T1044 000:972 JLINK_WriteReg(R0, 0x08002000)  returns 0x00 (0000ms, 0358ms total)
T1044 000:972 JLINK_WriteReg(R1, 0x00000400)  returns 0x00 (0000ms, 0358ms total)
T1044 000:972 JLINK_WriteReg(R2, 0x20000164)  returns 0x00 (0000ms, 0358ms total)
T1044 000:972 JLINK_WriteReg(R3, 0x00000000)  returns 0x00 (0000ms, 0358ms total)
T1044 000:972 JLINK_WriteReg(R4, 0x00000000)  returns 0x00 (0000ms, 0358ms total)
T1044 000:972 JLINK_WriteReg(R5, 0x00000000)  returns 0x00 (0000ms, 0358ms total)
T1044 000:972 JLINK_WriteReg(R6, 0x00000000)  returns 0x00 (0000ms, 0358ms total)
T1044 000:972 JLINK_WriteReg(R7, 0x00000000)  returns 0x00 (0000ms, 0358ms total)
T1044 000:972 JLINK_WriteReg(R8, 0x00000000)  returns 0x00 (0000ms, 0358ms total)
T1044 000:972 JLINK_WriteReg(R9, 0x20000160)  returns 0x00 (0000ms, 0358ms total)
T1044 000:972 JLINK_WriteReg(R10, 0x00000000)  returns 0x00 (0000ms, 0358ms total)
T1044 000:972 JLINK_WriteReg(R11, 0x00000000)  returns 0x00 (0000ms, 0358ms total)
T1044 000:972 JLINK_WriteReg(R12, 0x00000000)  returns 0x00 (0000ms, 0358ms total)
T1044 000:972 JLINK_WriteReg(R13 (SP), 0x20000800)  returns 0x00 (0000ms, 0358ms total)
T1044 000:972 JLINK_WriteReg(R14, 0x20000001)  returns 0x00 (0000ms, 0358ms total)
T1044 000:972 JLINK_WriteReg(R15 (PC), 0x200000F4)  returns 0x00 (0000ms, 0358ms total)
T1044 000:972 JLINK_WriteReg(XPSR, 0x01000000)  returns 0x00 (0000ms, 0358ms total)
T1044 000:972 JLINK_WriteReg(MSP, 0x20000800)  returns 0x00 (0000ms, 0358ms total)
T1044 000:972 JLINK_WriteReg(PSP, 0x20000800)  returns 0x00 (0000ms, 0358ms total)
T1044 000:972 JLINK_WriteReg(CFBP, 0x00000000)  returns 0x00 (0000ms, 0358ms total)
T1044 000:972 JLINK_SetBPEx(Addr = 0x20000000, Type = 0xFFFFFFF2)  returns 0x0000000D (0000ms, 0358ms total)
T1044 000:972 JLINK_Go() -- CPU_ReadMem(4 bytes @ 0xE0001000) (0002ms, 0360ms total)
T1044 000:974 JLINK_IsHalted()  returns FALSE (0001ms, 0361ms total)
T1044 000:978 JLINK_IsHalted()  returns FALSE (0000ms, 0360ms total)
T1044 000:980 JLINK_IsHalted()  returns FALSE (0000ms, 0360ms total)
T1044 000:981 JLINK_IsHalted()  returns FALSE (0000ms, 0360ms total)
T1044 000:983 JLINK_IsHalted()  returns FALSE (0000ms, 0360ms total)
T1044 000:984 JLINK_IsHalted()  returns FALSE (0000ms, 0360ms total)
T1044 000:986 JLINK_IsHalted()  returns FALSE (0000ms, 0360ms total)
T1044 000:988 JLINK_IsHalted()  returns FALSE (0000ms, 0360ms total)
T1044 000:989 JLINK_IsHalted()  returns FALSE (0000ms, 0360ms total)
T1044 000:991 JLINK_IsHalted()  returns FALSE (0000ms, 0360ms total)
T1044 000:992 JLINK_IsHalted()  returns FALSE (0000ms, 0360ms total)
T1044 000:994 JLINK_IsHalted()  returns FALSE (0000ms, 0360ms total)
T1044 000:995 JLINK_IsHalted()  returns FALSE (0000ms, 0360ms total)
T1044 000:997 JLINK_IsHalted()  returns FALSE (0000ms, 0360ms total)
T1044 000:998 JLINK_IsHalted()  returns FALSE (0000ms, 0360ms total)
T1044 001:001 JLINK_IsHalted()  returns FALSE (0000ms, 0360ms total)
T1044 001:003 JLINK_IsHalted()  returns FALSE (0000ms, 0360ms total)
T1044 001:004 JLINK_IsHalted()  returns FALSE (0000ms, 0360ms total)
T1044 001:006 JLINK_IsHalted() -- CPU_ReadMem(2 bytes @ 0x20000000)  returns TRUE (0003ms, 0363ms total)
T1044 001:009 JLINK_ReadReg(R15 (PC))  returns 0x20000000 (0000ms, 0360ms total)
T1044 001:009 JLINK_ClrBPEx(BPHandle = 0x0000000D)  returns 0x00 (0000ms, 0360ms total)
T1044 001:009 JLINK_ReadReg(R0)  returns 0x00000000 (0000ms, 0360ms total)
T1044 001:010 JLINK_WriteMem(0x20000164, 0x0400 Bytes, ...) - Data: 03 F0 E5 F9 31 46 F6 A0 00 F0 DE FE 00 BF 0A E0 ... -- CPU_WriteMem(1024 bytes @ 0x20000164)  returns 0x400 (0012ms, 0372ms total)
T1044 001:022 JLINK_WriteReg(R0, 0x08002400)  returns 0x00 (0000ms, 0372ms total)
T1044 001:022 JLINK_WriteReg(R1, 0x00000400)  returns 0x00 (0000ms, 0372ms total)
T1044 001:022 JLINK_WriteReg(R2, 0x20000164)  returns 0x00 (0000ms, 0372ms total)
T1044 001:022 JLINK_WriteReg(R3, 0x00000000)  returns 0x00 (0000ms, 0372ms total)
T1044 001:022 JLINK_WriteReg(R4, 0x00000000)  returns 0x00 (0000ms, 0372ms total)
T1044 001:022 JLINK_WriteReg(R5, 0x00000000)  returns 0x00 (0000ms, 0372ms total)
T1044 001:022 JLINK_WriteReg(R6, 0x00000000)  returns 0x00 (0000ms, 0372ms total)
T1044 001:022 JLINK_WriteReg(R7, 0x00000000)  returns 0x00 (0000ms, 0372ms total)
T1044 001:022 JLINK_WriteReg(R8, 0x00000000)  returns 0x00 (0000ms, 0372ms total)
T1044 001:022 JLINK_WriteReg(R9, 0x20000160)  returns 0x00 (0000ms, 0372ms total)
T1044 001:022 JLINK_WriteReg(R10, 0x00000000)  returns 0x00 (0000ms, 0372ms total)
T1044 001:022 JLINK_WriteReg(R11, 0x00000000)  returns 0x00 (0000ms, 0372ms total)
T1044 001:022 JLINK_WriteReg(R12, 0x00000000)  returns 0x00 (0000ms, 0372ms total)
T1044 001:022 JLINK_WriteReg(R13 (SP), 0x20000800)  returns 0x00 (0000ms, 0372ms total)
T1044 001:022 JLINK_WriteReg(R14, 0x20000001)  returns 0x00 (0000ms, 0372ms total)
T1044 001:022 JLINK_WriteReg(R15 (PC), 0x200000F4)  returns 0x00 (0000ms, 0372ms total)
T1044 001:022 JLINK_WriteReg(XPSR, 0x01000000)  returns 0x00 (0000ms, 0372ms total)
T1044 001:022 JLINK_WriteReg(MSP, 0x20000800)  returns 0x00 (0000ms, 0372ms total)
T1044 001:022 JLINK_WriteReg(PSP, 0x20000800)  returns 0x00 (0000ms, 0372ms total)
T1044 001:022 JLINK_WriteReg(CFBP, 0x00000000)  returns 0x00 (0000ms, 0372ms total)
T1044 001:022 JLINK_SetBPEx(Addr = 0x20000000, Type = 0xFFFFFFF2)  returns 0x0000000E (0000ms, 0372ms total)
T1044 001:022 JLINK_Go() -- CPU_ReadMem(4 bytes @ 0xE0001000) (0002ms, 0374ms total)
T1044 001:024 JLINK_IsHalted()  returns FALSE (0001ms, 0375ms total)
T1044 001:028 JLINK_IsHalted()  returns FALSE (0000ms, 0374ms total)
T1044 001:029 JLINK_IsHalted()  returns FALSE (0000ms, 0374ms total)
T1044 001:031 JLINK_IsHalted()  returns FALSE (0000ms, 0374ms total)
T1044 001:039 JLINK_IsHalted()  returns FALSE (0000ms, 0374ms total)
T1044 001:041 JLINK_IsHalted()  returns FALSE (0000ms, 0374ms total)
T1044 001:042 JLINK_IsHalted()  returns FALSE (0000ms, 0374ms total)
